time	V(v1)	V(v2)	V(vout)
0.000000000000000e+000	6.123234e-017	0.000000e+000	-9.724667e-017
2.857142890531708e-008	-8.975981e-005	8.975981e-005	-3.176476e-006
5.714285781063416e-008	-1.795196e-004	1.795196e-004	-1.345521e-006
8.571428671595124e-008	-2.692794e-004	2.692794e-004	5.492864e-006
1.142857156212683e-007	-3.590391e-004	3.590391e-004	1.733868e-005
1.428571445265854e-007	-4.487989e-004	4.487989e-004	3.419193e-005
1.714285734319025e-007	-5.385586e-004	5.385586e-004	5.605260e-005
2.000000023372195e-007	-6.283183e-004	6.283183e-004	8.292071e-005
4.000000046744390e-007	-1.256636e-003	1.256636e-003	5.426295e-004
6.181993748419604e-007	-1.942126e-003	1.942126e-003	1.641002e-003
9.361166066363156e-007	-2.940880e-003	2.940880e-003	4.221850e-003
1.327613886023744e-006	-4.170774e-003	4.170774e-003	8.164436e-003
1.763446339425392e-006	-5.539917e-003	5.539917e-003	1.277341e-002
2.264156736590303e-006	-7.112818e-003	7.112818e-003	1.791270e-002
7.157109097639295e-006	-2.251109e-002	2.251109e-002	6.715968e-002
1.205006145868829e-005	-3.785271e-002	3.785271e-002	1.162346e-001
1.694301381973728e-005	-5.313767e-002	5.313767e-002	1.651374e-001
2.183596618078627e-005	-6.836598e-002	6.836598e-002	2.138682e-001
2.672891854183526e-005	-8.353763e-002	8.353763e-002	2.624269e-001
3.162187090288425e-005	-9.865262e-002	9.865262e-002	3.108135e-001
3.651482326393323e-005	-1.137110e-001	1.137110e-001	3.590280e-001
4.697799290679038e-005	-1.457736e-001	1.457736e-001	4.616885e-001
5.744116254964753e-005	-1.768827e-001	1.768827e-001	5.613169e-001
6.790433219250468e-005	-2.070381e-001	2.070381e-001	6.579133e-001
7.836750183536183e-005	-2.362399e-001	2.362399e-001	7.514776e-001
8.883067147821898e-005	-2.644880e-001	2.644880e-001	8.420098e-001
9.929384112107614e-005	-2.917826e-001	2.917826e-001	9.295101e-001
1.097570107639333e-004	-3.181234e-001	3.181234e-001	1.013978e+000
1.271956268353619e-004	-3.592440e-001	3.592440e-001	1.145908e+000
1.446342429067905e-004	-3.951635e-001	3.951635e-001	1.261227e+000
1.620728589782190e-004	-4.258819e-001	4.258819e-001	1.359933e+000
1.795114750496476e-004	-4.513991e-001	4.513991e-001	1.442027e+000
1.969500911210762e-004	-4.717152e-001	4.717152e-001	1.507510e+000
2.143887071925048e-004	-4.868302e-001	4.868302e-001	1.556380e+000
2.318273232639334e-004	-4.967441e-001	4.967441e-001	1.588639e+000
2.520561179067905e-004	-4.992747e-001	4.992747e-001	1.597378e+000
2.722849125496477e-004	-4.943086e-001	4.943086e-001	1.582108e+000
2.925137071925049e-004	-4.818456e-001	4.818456e-001	1.542830e+000
3.127425018353620e-004	-4.618859e-001	4.618859e-001	1.479542e+000
3.329712964782192e-004	-4.344295e-001	4.344295e-001	1.392246e+000
3.532000911210764e-004	-3.994762e-001	3.994762e-001	1.280941e+000
3.734288857639335e-004	-3.570262e-001	3.570262e-001	1.145627e+000
3.845896000496478e-004	-3.312632e-001	3.312632e-001	1.063443e+000
3.957503143353621e-004	-3.042227e-001	3.042227e-001	9.771529e-001
4.069110286210764e-004	-2.759048e-001	2.759048e-001	8.867553e-001
4.180717429067907e-004	-2.463094e-001	2.463094e-001	7.922504e-001
4.292324571925050e-004	-2.154365e-001	2.154365e-001	6.936383e-001
4.403931714782193e-004	-1.832862e-001	1.832862e-001	5.909190e-001
4.515538857639336e-004	-1.498585e-001	1.498585e-001	4.840925e-001
4.578317875496479e-004	-1.308555e-001	1.308555e-001	4.233522e-001
4.641096893353621e-004	-1.117240e-001	1.117240e-001	3.621930e-001
4.703875911210764e-004	-9.246391e-002	9.246391e-002	3.006150e-001
4.766654929067907e-004	-7.307525e-002	7.307525e-002	2.386182e-001
4.829433946925050e-004	-5.355801e-002	5.355801e-002	1.762026e-001
4.892212964782192e-004	-3.391219e-002	3.391219e-002	1.133681e-001
4.954991982639335e-004	-1.413780e-002	1.413780e-002	5.011485e-002
5.052648232639335e-004	1.653691e-002	-1.653691e-002	-4.802110e-002
5.115427250496479e-004	3.630648e-002	-3.630648e-002	-1.112786e-001
5.178206268353622e-004	5.594379e-002	-5.594379e-002	-1.741206e-001
5.240985286210765e-004	7.544886e-002	-7.544886e-002	-2.365469e-001
5.303764304067907e-004	9.482168e-002	-9.482168e-002	-2.985576e-001
5.366543321925050e-004	1.140622e-001	-1.140622e-001	-3.601527e-001
5.429322339782193e-004	1.331706e-001	-1.331706e-001	-4.213321e-001
5.492101357639336e-004	1.521466e-001	-1.521466e-001	-4.820960e-001
5.610683946925050e-004	1.876213e-001	-1.876213e-001	-5.957135e-001
5.729266536210765e-004	2.216078e-001	-2.216078e-001	-7.045929e-001
5.847849125496479e-004	2.541062e-001	-2.541062e-001	-8.087342e-001
5.966431714782193e-004	2.851165e-001	-2.851165e-001	-9.081374e-001
6.085014304067908e-004	3.146386e-001	-3.146386e-001	-1.002802e+000
6.203596893353622e-004	3.426727e-001	-3.426727e-001	-1.092729e+000
6.322179482639337e-004	3.692186e-001	-3.692186e-001	-1.177918e+000
6.538418321925051e-004	4.124728e-001	-4.124728e-001	-1.316846e+000
6.754657161210766e-004	4.470084e-001	-4.470084e-001	-1.427903e+000
6.970896000496480e-004	4.728255e-001	-4.728255e-001	-1.511092e+000
7.187134839782194e-004	4.899241e-001	-4.899241e-001	-1.566411e+000
7.403373679067910e-004	4.983042e-001	-4.983042e-001	-1.593860e+000
7.619612518353624e-004	4.979657e-001	-4.979657e-001	-1.593440e+000
7.835851357639338e-004	4.889087e-001	-4.889087e-001	-1.565151e+000
7.996286625496481e-004	4.752584e-001	-4.752584e-001	-1.521966e+000
8.156721893353624e-004	4.573644e-001	-4.573644e-001	-1.465180e+000
8.317157161210767e-004	4.352267e-001	-4.352267e-001	-1.394790e+000
8.477592429067911e-004	4.088455e-001	-4.088455e-001	-1.310799e+000
8.638027696925054e-004	3.782206e-001	-3.782206e-001	-1.213204e+000
8.798462964782197e-004	3.433521e-001	-3.433521e-001	-1.102008e+000
8.958898232639339e-004	3.042399e-001	-3.042399e-001	-9.772084e-001
9.063529929067910e-004	2.771979e-001	-2.771979e-001	-8.908836e-001
9.168161625496482e-004	2.492713e-001	-2.492713e-001	-8.017095e-001
9.272793321925053e-004	2.204599e-001	-2.204599e-001	-7.096859e-001
9.377425018353625e-004	1.907639e-001	-1.907639e-001	-6.148128e-001
9.482056714782196e-004	1.601832e-001	-1.601832e-001	-5.170904e-001
9.586688411210769e-004	1.287179e-001	-1.287179e-001	-4.165185e-001
9.691320107639340e-004	9.636782e-002	-9.636782e-002	-3.130972e-001
9.733172786210768e-004	8.341153e-002	-8.341153e-002	-2.716703e-001
9.775025464782196e-004	7.042010e-002	-7.042010e-002	-2.301276e-001
9.816878143353624e-004	5.739352e-002	-5.739352e-002	-1.884691e-001
9.858730821925052e-004	4.433179e-002	-4.433179e-002	-1.466948e-001
9.900583500496480e-004	3.123491e-002	-3.123491e-002	-1.048047e-001
9.942436179067907e-004	1.810289e-002	-1.810289e-002	-6.279879e-002
9.984288857639335e-004	4.935721e-003	-4.935721e-003	-2.067706e-002
1.013077323263933e-003	-4.103741e-002	4.103741e-002	1.264175e-001
1.020750314335362e-003	-6.514065e-002	6.514065e-002	2.035544e-001
1.028423305406790e-003	-8.895614e-002	8.895614e-002	2.797818e-001
1.036096296478219e-003	-1.124839e-001	1.124839e-001	3.550995e-001
1.043769287549647e-003	-1.357238e-001	1.357238e-001	4.295076e-001
1.051442278621075e-003	-1.586761e-001	1.586761e-001	5.030061e-001
1.059115269692504e-003	-1.813405e-001	1.813405e-001	5.755950e-001
1.066788260763932e-003	-2.037172e-001	2.037172e-001	6.472743e-001
1.080041608978218e-003	-2.415523e-001	2.415523e-001	7.685028e-001
1.093294957192503e-003	-2.771427e-001	2.771427e-001	8.825755e-001
1.106548305406788e-003	-3.104885e-001	3.104885e-001	9.894924e-001
1.119801653621074e-003	-3.415895e-001	3.415895e-001	1.089254e+000
1.133055001835359e-003	-3.704459e-001	3.704459e-001	1.181859e+000
1.146308350049645e-003	-3.970575e-001	3.970575e-001	1.267308e+000
1.159561698263930e-003	-4.214245e-001	4.214245e-001	1.345602e+000
1.188161028621072e-003	-4.628769e-001	4.628769e-001	1.479064e+000
1.216760358978215e-003	-4.888127e-001	4.888127e-001	1.562877e+000
1.245359689335357e-003	-4.992318e-001	4.992318e-001	1.597039e+000
1.273959019692499e-003	-4.941344e-001	4.941344e-001	1.581551e+000
1.302558350049641e-003	-4.735205e-001	4.735205e-001	1.516412e+000
1.331157680406784e-003	-4.373899e-001	4.373899e-001	1.401624e+000
1.359757010763926e-003	-3.857428e-001	3.857428e-001	1.237185e+000
1.371615269692497e-003	-3.605834e-001	3.605834e-001	1.156970e+000
1.383473528621068e-003	-3.338207e-001	3.338207e-001	1.071603e+000
1.395331787549639e-003	-3.054549e-001	3.054549e-001	9.810859e-001
1.407190046478211e-003	-2.754858e-001	2.754858e-001	8.854174e-001
1.419048305406782e-003	-2.439134e-001	2.439134e-001	7.845978e-001
1.430906564335353e-003	-2.107378e-001	2.107378e-001	6.786272e-001
1.442764823263924e-003	-1.759589e-001	1.759589e-001	5.675056e-001
1.449740269692495e-003	-1.551819e-001	1.551819e-001	5.011066e-001
1.456715716121067e-003	-1.342087e-001	1.342087e-001	4.340707e-001
1.463691162549638e-003	-1.130393e-001	1.130393e-001	3.663979e-001
1.470666608978209e-003	-9.167359e-002	9.167359e-002	2.980881e-001
1.477642055406780e-003	-7.011170e-002	7.011170e-002	2.291414e-001
1.484617501835352e-003	-4.835359e-002	4.835359e-002	1.595577e-001
1.491592948263923e-003	-2.639925e-002	2.639925e-002	8.933709e-002
1.495080671478209e-003	-1.543892e-002	1.543892e-002	5.427703e-002
1.498568394692494e-003	-4.484314e-003	4.484314e-003	1.923295e-002
1.502056117906780e-003	6.464562e-003	-6.464562e-003	-1.579514e-002
1.505543841121066e-003	1.740771e-002	-1.740771e-002	-5.080726e-002
1.509031564335351e-003	2.834512e-002	-2.834512e-002	-8.580339e-002
1.512519287549637e-003	3.927681e-002	-3.927681e-002	-1.207835e-001
1.516007010763923e-003	5.020277e-002	-5.020277e-002	-1.557477e-001
1.524377546478208e-003	7.646051e-002	-7.646051e-002	-2.397851e-001
1.532748082192494e-003	1.023311e-001	-1.023311e-001	-3.225968e-001
1.541118617906779e-003	1.278146e-001	-1.278146e-001	-4.041830e-001
1.549489153621065e-003	1.529109e-001	-1.529109e-001	-4.845435e-001
1.557859689335350e-003	1.776201e-001	-1.776201e-001	-5.636784e-001
1.566230225049636e-003	2.019421e-001	-2.019421e-001	-6.415877e-001
1.574600760763921e-003	2.258770e-001	-2.258770e-001	-7.182714e-001
1.588551653621064e-003	2.646806e-001	-2.646806e-001	-8.426285e-001
1.602502546478206e-003	3.008186e-001	-3.008186e-001	-9.584842e-001
1.616453439335349e-003	3.342911e-001	-3.342911e-001	-1.065839e+000
1.630404332192492e-003	3.650979e-001	-3.650979e-001	-1.164692e+000
1.644355225049634e-003	3.932392e-001	-3.932392e-001	-1.255044e+000
1.658306117906777e-003	4.187150e-001	-4.187150e-001	-1.336895e+000
1.672257010763919e-003	4.415251e-001	-4.415251e-001	-1.410245e+000
1.698763707192490e-003	4.742062e-001	-4.742062e-001	-1.515601e+000
1.725270403621061e-003	4.935219e-001	-4.935219e-001	-1.578185e+000
1.751777100049632e-003	4.994720e-001	-4.994720e-001	-1.597998e+000
1.778283796478203e-003	4.920567e-001	-4.920567e-001	-1.575040e+000
1.804790492906774e-003	4.712758e-001	-4.712758e-001	-1.509310e+000
1.831297189335345e-003	4.371295e-001	-4.371295e-001	-1.400808e+000
1.857803885763915e-003	3.896176e-001	-3.896176e-001	-1.249535e+000
1.869662144692486e-003	3.648055e-001	-3.648055e-001	-1.170434e+000
1.881520403621058e-003	3.383627e-001	-3.383627e-001	-1.086094e+000
1.893378662549629e-003	3.102892e-001	-3.102892e-001	-9.965153e-001
1.905236921478200e-003	2.805852e-001	-2.805852e-001	-9.016983e-001
1.917095180406771e-003	2.492504e-001	-2.492504e-001	-8.016427e-001
1.928953439335342e-003	2.162850e-001	-2.162850e-001	-6.963485e-001
1.940811698263914e-003	1.816889e-001	-1.816889e-001	-5.858158e-001
1.947787144692485e-003	1.610029e-001	-1.610029e-001	-5.197102e-001
1.954762591121056e-003	1.401091e-001	-1.401091e-001	-4.529310e-001
1.961738037549627e-003	1.190076e-001	-1.190076e-001	-3.854781e-001
1.968713483978199e-003	9.769842e-002	-9.769842e-002	-3.173514e-001
1.975688930406770e-003	7.618149e-002	-7.618149e-002	-2.485511e-001
1.982664376835341e-003	5.445684e-002	-5.445684e-002	-1.790772e-001
1.989639823263912e-003	3.252447e-002	-3.252447e-002	-1.089295e-001
2.014053885763912e-003	-4.409423e-002	4.409423e-002	1.361995e-001
2.021726876835340e-003	-6.818114e-002	6.818114e-002	2.132856e-001
2.029399867906769e-003	-9.197341e-002	9.197341e-002	2.894401e-001
2.037072858978197e-003	-1.154710e-001	1.154710e-001	3.646629e-001
2.044745850049626e-003	-1.386740e-001	1.386740e-001	4.389541e-001
2.052418841121054e-003	-1.615824e-001	1.615824e-001	5.123136e-001
2.060091832192483e-003	-1.841961e-001	1.841961e-001	5.847415e-001
2.067764823263911e-003	-2.065151e-001	2.065151e-001	6.562378e-001
2.081018171478196e-003	-2.442331e-001	2.442331e-001	7.770938e-001
2.094271519692482e-003	-2.796904e-001	2.796904e-001	8.907428e-001
2.107524867906767e-003	-3.128871e-001	3.128871e-001	9.971849e-001
2.120778216121052e-003	-3.438232e-001	3.438232e-001	1.096420e+000
2.134031564335338e-003	-3.724986e-001	3.724986e-001	1.188448e+000
2.147284912549623e-003	-3.989135e-001	3.989135e-001	1.273270e+000
2.160538260763909e-003	-4.230676e-001	4.230676e-001	1.350884e+000
2.189137591121051e-003	-4.639871e-001	4.639871e-001	1.482644e+000
2.217736921478193e-003	-4.893961e-001	4.893961e-001	1.564773e+000
2.246336251835335e-003	-4.992946e-001	4.992946e-001	1.597269e+000
2.274935582192478e-003	-4.936826e-001	4.936826e-001	1.580135e+000
2.303534912549620e-003	-4.725601e-001	4.725601e-001	1.513368e+000
2.332134242906762e-003	-4.359271e-001	4.359271e-001	1.396970e+000
2.360733573263905e-003	-3.837835e-001	3.837835e-001	1.230940e+000
2.372591832192476e-003	-3.584519e-001	3.584519e-001	1.150172e+000
2.384450091121047e-003	-3.315309e-001	3.315309e-001	1.064298e+000
2.396308350049618e-003	-3.030204e-001	3.030204e-001	9.733157e-001
2.408166608978189e-003	-2.729204e-001	2.729204e-001	8.772268e-001
2.420024867906761e-003	-2.412310e-001	2.412310e-001	7.760310e-001
2.431883126835331e-003	-2.079522e-001	2.079522e-001	6.697282e-001
2.443741385763903e-003	-1.730839e-001	1.730839e-001	5.583184e-001
2.450716832192474e-003	-1.522626e-001	1.522626e-001	4.917764e-001
2.457692278621045e-003	-1.312509e-001	1.312509e-001	4.246159e-001
2.464667725049617e-003	-1.100486e-001	1.100486e-001	3.568369e-001
2.471643171478188e-003	-8.865594e-002	8.865594e-002	2.884394e-001
2.478618617906759e-003	-6.707279e-002	6.707279e-002	2.194233e-001
2.485594064335330e-003	-4.529917e-002	4.529917e-002	1.497887e-001
2.492569510763902e-003	-2.333509e-002	2.333509e-002	7.953565e-002
2.496057233978187e-003	-1.237215e-002	1.237215e-002	4.446659e-002
2.499544957192473e-003	-1.416413e-003	1.416413e-003	9.418227e-003
2.503032680406759e-003	9.532125e-003	-9.532125e-003	-2.560945e-002
2.506520403621044e-003	2.047346e-002	-2.047346e-002	-6.061643e-002
2.510008126835330e-003	3.140760e-002	-3.140760e-002	-9.560272e-002
2.513495850049616e-003	4.233453e-002	-4.233453e-002	-1.305683e-001
2.516983573263901e-003	5.325427e-002	-5.325427e-002	-1.655132e-001
2.525354108978187e-003	7.949081e-002	-7.949081e-002	-2.494843e-001
2.533724644692472e-003	1.053321e-001	-1.053321e-001	-3.322039e-001
2.542095180406758e-003	1.307781e-001	-1.307781e-001	-4.136718e-001
2.550465716121043e-003	1.558289e-001	-1.558289e-001	-4.938882e-001
2.558836251835329e-003	1.804845e-001	-1.804845e-001	-5.728530e-001
2.567206787549614e-003	2.047448e-001	-2.047448e-001	-6.505663e-001
2.575577323263900e-003	2.286098e-001	-2.286098e-001	-7.270279e-001
2.589528216121042e-003	2.672774e-001	-2.672774e-001	-8.509520e-001
2.603479108978185e-003	3.032628e-001	-3.032628e-001	-9.663216e-001
2.617430001835328e-003	3.365659e-001	-3.365659e-001	-1.073137e+000
2.631380894692470e-003	3.671869e-001	-3.671869e-001	-1.171397e+000
2.645331787549613e-003	3.951256e-001	-3.951256e-001	-1.261103e+000
2.659282680406756e-003	4.203822e-001	-4.203822e-001	-1.342254e+000
2.673233573263898e-003	4.429565e-001	-4.429565e-001	-1.414850e+000
2.699740269692469e-003	4.751334e-001	-4.751334e-001	-1.518595e+000
2.726246966121039e-003	4.939527e-001	-4.939527e-001	-1.579593e+000
2.752753662549610e-003	4.994146e-001	-4.994146e-001	-1.597845e+000
2.779260358978181e-003	4.915191e-001	-4.915191e-001	-1.573349e+000
2.805767055406752e-003	4.702660e-001	-4.702660e-001	-1.506107e+000
2.832273751835323e-003	4.356555e-001	-4.356555e-001	-1.396119e+000
2.858780448263894e-003	3.876875e-001	-3.876875e-001	-1.243383e+000
2.870638707192465e-003	3.627012e-001	-3.627012e-001	-1.163724e+000
2.882496966121036e-003	3.360980e-001	-3.360980e-001	-1.078869e+000
2.894355225049607e-003	3.078779e-001	-3.078779e-001	-9.888192e-001
2.906213483978179e-003	2.780407e-001	-2.780407e-001	-8.935747e-001
2.918071742906750e-003	2.465865e-001	-2.465865e-001	-7.931352e-001
2.929930001835321e-003	2.135154e-001	-2.135154e-001	-6.875008e-001
2.941788260763892e-003	1.788273e-001	-1.788273e-001	-5.766715e-001
2.948763707192464e-003	1.580954e-001	-1.580954e-001	-5.104180e-001
2.955739153621035e-003	1.371615e-001	-1.371615e-001	-4.435092e-001
2.962714600049606e-003	1.160256e-001	-1.160256e-001	-3.759450e-001
2.969690046478177e-003	9.468778e-002	-9.468778e-002	-3.077256e-001
2.976665492906749e-003	7.314797e-002	-7.314797e-002	-2.388508e-001
2.983640939335320e-003	5.140618e-002	-5.140618e-002	-1.693206e-001
2.990616385763891e-003	2.946242e-002	-2.946242e-002	-9.913516e-002
3.000382010763891e-003	-1.200121e-003	1.200121e-003	-1.047367e-003
3.005264823263891e-003	-1.657282e-002	1.657282e-002	4.813599e-002
3.010147635763891e-003	-3.189401e-002	3.189401e-002	9.715916e-002
3.015030448263891e-003	-4.716369e-002	4.716369e-002	1.460221e-001
3.019913260763891e-003	-6.238188e-002	6.238188e-002	1.947249e-001
3.024796073263890e-003	-7.754856e-002	7.754856e-002	2.432674e-001
3.029678885763890e-003	-9.266374e-002	9.266374e-002	2.916498e-001
3.034561698263890e-003	-1.077274e-001	1.077274e-001	3.398720e-001
3.045024867906747e-003	-1.398941e-001	1.398941e-001	4.428612e-001
3.055488037549604e-003	-1.711308e-001	1.711308e-001	5.428944e-001
3.065951207192461e-003	-2.014376e-001	2.014376e-001	6.399716e-001
3.076414376835318e-003	-2.308146e-001	2.308146e-001	7.340927e-001
3.086877546478175e-003	-2.592616e-001	2.592616e-001	8.252578e-001
3.097340716121032e-003	-2.867786e-001	2.867786e-001	9.134668e-001
3.107803885763889e-003	-3.133658e-001	3.133658e-001	9.987198e-001
3.124544957192460e-003	-3.533223e-001	3.533223e-001	1.126904e+000
3.141286028621031e-003	-3.885540e-001	3.885540e-001	1.239999e+000
3.158027100049602e-003	-4.190609e-001	4.190609e-001	1.338006e+000
3.174768171478173e-003	-4.448429e-001	4.448429e-001	1.420923e+000
3.191509242906744e-003	-4.659001e-001	4.659001e-001	1.488751e+000
3.208250314335315e-003	-4.822324e-001	4.822324e-001	1.541490e+000
3.224991385763886e-003	-4.938399e-001	4.938399e-001	1.579139e+000
3.245917725049600e-003	-4.991597e-001	4.991597e-001	1.596824e+000
3.266844064335314e-003	-4.963946e-001	4.963946e-001	1.588619e+000
3.287770403621027e-003	-4.855445e-001	4.855445e-001	1.554523e+000
3.308696742906742e-003	-4.666095e-001	4.666095e-001	1.494538e+000
3.329623082192455e-003	-4.395896e-001	4.395896e-001	1.408662e+000
3.350549421478169e-003	-4.044847e-001	4.044847e-001	1.296896e+000
3.371475760763883e-003	-3.612950e-001	3.612950e-001	1.159240e+000
3.382636475049597e-003	-3.358332e-001	3.358332e-001	1.078024e+000
3.393797189335311e-003	-3.090685e-001	3.090685e-001	9.926188e-001
3.404957903621025e-003	-2.810008e-001	2.810008e-001	9.030252e-001
3.416118617906739e-003	-2.516302e-001	2.516302e-001	8.092431e-001
3.427279332192453e-003	-2.209567e-001	2.209567e-001	7.112724e-001
3.438440046478167e-003	-1.889803e-001	1.889803e-001	6.091131e-001
3.449600760763881e-003	-1.557009e-001	1.557009e-001	5.027653e-001
3.455878662549595e-003	-1.367675e-001	1.367675e-001	4.422498e-001
3.462156564335310e-003	-1.176962e-001	1.176962e-001	3.812855e-001
3.468434466121024e-003	-9.848687e-002	9.848687e-002	3.198724e-001
3.474712367906738e-003	-7.913961e-002	7.913961e-002	2.580104e-001
3.480990269692452e-003	-5.965439e-002	5.965439e-002	1.956995e-001
3.487268171478166e-003	-4.003120e-002	4.003120e-002	1.329398e-001
3.493546073263880e-003	-2.027005e-002	2.027005e-002	6.973121e-002
3.497033796478166e-003	-9.304920e-003	9.304920e-003	3.465448e-002
3.500521519692452e-003	1.651541e-003	-1.651541e-003	-3.968448e-004
